
T40BC 000:315 SEGGER J-Link V4.96d Log File (0000ms, 0269ms total)
T40BC 000:315 DLL Compiled: Jan 29 2015 11:45:37 (0000ms, 0269ms total)
T40BC 000:315 Logging started @ 2020-12-08 12:11 (0000ms, 0269ms total)
T40BC 000:315 JLINK_SetWarnOutHandler(...) (0000ms, 0269ms total)
T40BC 000:315 JLINK_OpenEx(...)
Firmware: J-Link ARM V8 compiled Nov 28 2014 13:44:46
Hardware: V8.00
S/N: 58001139
Feature(s): RDI,FlashDL,FlashBP,JFlash  returns O.K. (0275ms, 0544ms total)
T40BC 000:590 JLINK_SetErrorOutHandler(...) (0000ms, 0544ms total)
T40BC 000:590 JLINK_ExecCommand("ProjectFile = "F:\STM32-program\W5500_Program_New\25.W5500EVB_通过上位机配置+固件升级\Project\下位机源码\W5500EVB_Boot\MDK5\JLinkSettings.ini"", ...)  returns 0x00 (0000ms, 0544ms total)
T40BC 000:600 JLINK_ExecCommand("Device = STM32F103VE", ...)Device "STM32F103VE" selected.  returns 0x00 (0010ms, 0554ms total)
T40BC 000:610 JLINK_ExecCommand("DisableConnectionTimeout", ...)  returns 0x01 (0000ms, 0554ms total)
T40BC 000:610 JLINK_GetHardwareVersion()  returns 0x13880 (0000ms, 0554ms total)
T40BC 000:610 JLINK_GetDLLVersion()  returns 49604 (0000ms, 0554ms total)
T40BC 000:610 JLINK_GetFirmwareString(...) (0000ms, 0554ms total)
T40BC 000:628 JLINK_GetDLLVersion()  returns 49604 (0000ms, 0554ms total)
T40BC 000:628 JLINK_GetCompileDateTime() (0000ms, 0554ms total)
T40BC 000:633 JLINK_GetFirmwareString(...) (0000ms, 0554ms total)
T40BC 000:635 JLINK_GetHardwareVersion()  returns 0x13880 (0000ms, 0554ms total)
T40BC 000:649 JLINK_TIF_Select(JLINKARM_TIF_JTAG)  returns 0x00 (0005ms, 0559ms total)
T40BC 000:654 JLINK_SetSpeed(20000) (0001ms, 0560ms total)
T40BC 000:655 JLINK_GetIdData(...) >0x2F8 JTAG>TotalIRLen = 9, IRPrint = 0x0011 >0x30 JTAG> >0x210 JTAG> >0x40 JTAG> >0x40 JTAG> >0x40 JTAG> >0x30 JTAG> >0x40 JTAG> >0x40 JTAG> >0x40 JTAG> >0x40 JTAG> >0x40 JTAG> >0x40 JTAG> >0x40 JTAG> >0x40 JTAG> >0x2F8 JTAG>TotalIRLen = 9, IRPrint = 0x0011 >0x30 JTAG> >0x210 JTAG> >0x70 JTAG> >0x40 JTAG> >0x40 JTAG> >0x40 JTAG> >0x50 JTAG> >0x80 JTAG> >0x40 JTAG> >0x30 JTAG> >0x40 JTAG> >0x40 JTAG> >0x30 JTAG> >0x40 JTAG> >0x50 JTAG>
Found Cortex-M3 r1p1, Little endian. -- CPU_WriteMem(4 bytes @ 0xE0002000) -- CPU_ReadMem(4 bytes @ 0xE000EDF0) -- CPU_ReadMem(4 bytes @ 0xE0002000)FPUnit: 6 code (BP) slots and 2 literal slots -- CPU_ReadMem(4 bytes @ 0xE000EDFC) -- CPU_ReadMem(4 bytes @ 0xE0001000) -- CPU_WriteMem(4 bytes @ 0xE0001000) -- CPU_ReadMem(4 bytes @ 0xE000ED88) -- CPU_WriteMem(4 bytes @ 0xE000ED88) -- CPU_ReadMem(4 bytes @ 0xE000ED88) -- CPU_WriteMem(4 bytes @ 0xE000ED88) -- CPU_ReadMem(4 bytes @ 0xE00FF010)TPIU fitted.
 -- CPU_ReadMem(4 bytes @ 0xE00FF014)ETM fitted. -- CPU_ReadMem(4 bytes @ 0xE00FF018) ScanLen=9 NumDevices=2 aId[0]=0x3BA00477 aIrRead[0]=0 aScanLen[0]=0 aScanRead[0]=0 (0064ms, 0624ms total)
T40BC 000:719 JLINK_JTAG_GetDeviceID(DeviceIndex = 0)  returns 0x3BA00477 (0000ms, 0624ms total)
T40BC 000:719 JLINK_JTAG_GetDeviceInfo(DeviceIndex = 0)  returns 0x00 (0000ms, 0624ms total)
T40BC 000:719 JLINK_JTAG_GetDeviceID(DeviceIndex = 1)  returns 0x6414041 (0000ms, 0624ms total)
T40BC 000:719 JLINK_JTAG_GetDeviceInfo(DeviceIndex = 1)  returns 0x00 (0000ms, 0624ms total)
T40BC 000:719 JLINK_GetDLLVersion()  returns 49604 (0000ms, 0624ms total)
T40BC 000:719 JLINK_CORE_GetFound()  returns 0x30000FF (0000ms, 0624ms total)
T40BC 000:719 JLINK_GetDebugInfo(0x100) -- Value=0xE00FF003  returns 0x00 (0000ms, 0624ms total)
T40BC 000:721 JLINK_ReadMem (0xE00FF000, 0x0020 Bytes, ...) -- CPU is running -- CPU_ReadMem(32 bytes @ 0xE00FF000) - Data: 03 F0 F0 FF 03 20 F0 FF 03 30 F0 FF 03 10 F0 FF ...  returns 0x00 (0001ms, 0625ms total)
T40BC 000:722 JLINK_ReadMem (0xE000EFF0, 0x0010 Bytes, ...) -- CPU is running -- CPU_ReadMem(16 bytes @ 0xE000EFF0) - Data: 0D 00 00 00 E0 00 00 00 05 00 00 00 B1 00 00 00  returns 0x00 (0002ms, 0627ms total)
T40BC 000:724 JLINK_ReadMem (0xE000EFD0, 0x0020 Bytes, ...) -- CPU is running -- CPU_ReadMem(32 bytes @ 0xE000EFD0) - Data: 04 00 00 00 00 00 00 00 00 00 00 00 00 00 00 00 ...  returns 0x00 (0002ms, 0629ms total)
T40BC 000:726 JLINK_ReadMem (0xE0001FF0, 0x0010 Bytes, ...) -- CPU is running -- CPU_ReadMem(16 bytes @ 0xE0001FF0) - Data: 0D 00 00 00 E0 00 00 00 05 00 00 00 B1 00 00 00  returns 0x00 (0001ms, 0630ms total)
T40BC 000:727 JLINK_ReadMem (0xE0001FD0, 0x0020 Bytes, ...) -- CPU is running -- CPU_ReadMem(32 bytes @ 0xE0001FD0) - Data: 04 00 00 00 00 00 00 00 00 00 00 00 00 00 00 00 ...  returns 0x00 (0001ms, 0631ms total)
T40BC 000:728 JLINK_ReadMem (0xE0002FF0, 0x0010 Bytes, ...) -- CPU is running -- CPU_ReadMem(16 bytes @ 0xE0002FF0) - Data: 0D 00 00 00 E0 00 00 00 05 00 00 00 B1 00 00 00  returns 0x00 (0001ms, 0632ms total)
T40BC 000:729 JLINK_ReadMem (0xE0002FD0, 0x0020 Bytes, ...) -- CPU is running -- CPU_ReadMem(32 bytes @ 0xE0002FD0) - Data: 04 00 00 00 00 00 00 00 00 00 00 00 00 00 00 00 ...  returns 0x00 (0002ms, 0634ms total)
T40BC 000:731 JLINK_ReadMem (0xE0000FF0, 0x0010 Bytes, ...) -- CPU is running -- CPU_ReadMem(16 bytes @ 0xE0000FF0) - Data: 0D 00 00 00 E0 00 00 00 05 00 00 00 B1 00 00 00  returns 0x00 (0001ms, 0635ms total)
T40BC 000:732 JLINK_ReadMem (0xE0000FD0, 0x0020 Bytes, ...) -- CPU is running -- CPU_ReadMem(32 bytes @ 0xE0000FD0) - Data: 04 00 00 00 00 00 00 00 00 00 00 00 00 00 00 00 ...  returns 0x00 (0001ms, 0636ms total)
T40BC 000:734 JLINK_ReadMem (0xE0040FF0, 0x0010 Bytes, ...) -- CPU is running -- CPU_ReadMem(16 bytes @ 0xE0040FF0) - Data: 0D 00 00 00 90 00 00 00 05 00 00 00 B1 00 00 00  returns 0x00 (0000ms, 0636ms total)
T40BC 000:734 JLINK_ReadMem (0xE0040FD0, 0x0020 Bytes, ...) -- CPU is running -- CPU_ReadMem(32 bytes @ 0xE0040FD0) - Data: 04 00 00 00 00 00 00 00 00 00 00 00 00 00 00 00 ...  returns 0x00 (0001ms, 0637ms total)
T40BC 000:735 JLINK_ReadMem (0xE0041FF0, 0x0010 Bytes, ...) -- CPU is running -- CPU_ReadMem(16 bytes @ 0xE0041FF0) - Data: 0D 00 00 00 90 00 00 00 05 00 00 00 B1 00 00 00  returns 0x00 (0001ms, 0638ms total)
T40BC 000:736 JLINK_ReadMem (0xE0041FD0, 0x0020 Bytes, ...) -- CPU is running -- CPU_ReadMem(32 bytes @ 0xE0041FD0) - Data: 04 00 00 00 00 00 00 00 00 00 00 00 00 00 00 00 ...  returns 0x00 (0002ms, 0640ms total)
T40BC 000:738 JLINK_ReadMemU32(0xE000ED00, 0x0001 Items, ...) -- CPU is running -- CPU_ReadMem(4 bytes @ 0xE000ED00) - Data: 31 C2 1F 41  returns 0x01 (0001ms, 0641ms total)
T40BC 000:739 JLINK_SetResetType(JLINKARM_RESET_TYPE_NORMAL)  returns JLINKARM_RESET_TYPE_NORMAL (0000ms, 0641ms total)
T40BC 000:739 JLINK_Reset() -- CPU is running -- CPU_WriteMem(4 bytes @ 0xE000EDF0) -- CPU is running -- CPU_WriteMem(4 bytes @ 0xE000EDFC) -- CPU is running -- CPU_WriteMem(4 bytes @ 0xE000ED0C) -- CPU is running -- CPU_ReadMem(4 bytes @ 0xE000EDF0) -- CPU is running -- CPU_ReadMem(4 bytes @ 0xE000EDF0) -- CPU is running -- CPU_WriteMem(4 bytes @ 0xE000EDF0) -- CPU is running -- CPU_WriteMem(4 bytes @ 0xE000EDFC) -- CPU is running -- CPU_ReadMem(4 bytes @ 0xE000EDF0) >0x80 JTAG> >0x40 JTAG> >0x30 JTAG>
 >0x40 JTAG> >0x50 JTAG> >0x40 JTAG> -- CPU_WriteMem(4 bytes @ 0xE000EDFC) -- CPU_WriteMem(4 bytes @ 0xE0001028) -- CPU_WriteMem(4 bytes @ 0xE0001038) -- CPU_WriteMem(4 bytes @ 0xE0001048) -- CPU_WriteMem(4 bytes @ 0xE0001058) -- CPU_WriteMem(4 bytes @ 0xE0002000) -- CPU_ReadMem(4 bytes @ 0xE000EDFC) -- CPU_ReadMem(4 bytes @ 0xE0001000) (0037ms, 0678ms total)
T40BC 000:776 JLINK_Halt()  returns 0x00 (0000ms, 0678ms total)
T40BC 000:776 JLINK_IsHalted()  returns TRUE (0001ms, 0679ms total)
T40BC 000:778 JLINK_ReadMemU32(0xE000EDF0, 0x0001 Items, ...) -- CPU_ReadMem(4 bytes @ 0xE000EDF0) - Data: 03 00 03 00  returns 0x01 (0001ms, 0679ms total)
T40BC 000:779 JLINK_WriteU32(0xE000EDF0, 0xA05F0003) -- CPU_WriteMem(4 bytes @ 0xE000EDF0)  returns 0x00 (0000ms, 0679ms total)
T40BC 000:779 JLINK_WriteU32(0xE000EDFC, 0x01000000) -- CPU_WriteMem(4 bytes @ 0xE000EDFC)  returns 0x00 (0000ms, 0679ms total)
T40BC 000:789 JLINK_GetHWStatus(...)  returns 0x00 (0000ms, 0679ms total)
T40BC 000:801 JLINK_GetNumBPUnits(Type = 0xFFFFFF00)  returns 0x06 (0000ms, 0679ms total)
T40BC 000:801 JLINK_GetNumBPUnits(Type = 0xF0)  returns 0x2000 (0000ms, 0679ms total)
T40BC 000:801 JLINK_GetNumWPUnits()  returns 0x04 (0000ms, 0679ms total)
T40BC 000:812 JLINK_GetSpeed()  returns 0x2EE0 (0000ms, 0679ms total)
T40BC 000:816 JLINK_ReadMemU32(0xE000E004, 0x0001 Items, ...) -- CPU_ReadMem(4 bytes @ 0xE000E004) - Data: 01 00 00 00  returns 0x01 (0001ms, 0680ms total)
T40BC 000:817 JLINK_ReadMemU32(0xE000E004, 0x0001 Items, ...) -- CPU_ReadMem(4 bytes @ 0xE000E004) - Data: 01 00 00 00  returns 0x01 (0002ms, 0682ms total)
T40BC 000:819 JLINK_WriteMem(0xE0001000, 0x001C Bytes, ...) - Data: 01 00 00 00 00 00 00 00 00 00 00 00 00 00 00 00 ... -- CPU_WriteMem(28 bytes @ 0xE0001000)  returns 0x1C (0002ms, 0684ms total)
T40BC 000:821 JLINK_ReadMem (0xE0001000, 0x001C Bytes, ...) -- CPU_ReadMem(28 bytes @ 0xE0001000) - Data: 01 00 00 40 00 00 00 00 00 00 00 00 00 00 00 00 ...  returns 0x00 (0002ms, 0686ms total)
T40BC 000:823 JLINK_Halt()  returns 0x00 (0000ms, 0686ms total)
T40BC 000:823 JLINK_IsHalted()  returns TRUE (0000ms, 0686ms total)
T40BC 000:826 JLINK_WriteMem(0x20000000, 0x0164 Bytes, ...) - Data: 00 BE 0A E0 0D 78 2D 06 68 40 08 24 40 00 00 D3 ... -- CPU_WriteMem(356 bytes @ 0x20000000)  returns 0x164 (0004ms, 0690ms total)
T40BC 000:830 JLINK_WriteReg(R0, 0x08000000)  returns 0x00 (0000ms, 0690ms total)
T40BC 000:830 JLINK_WriteReg(R1, 0x007A1200)  returns 0x00 (0000ms, 0690ms total)
T40BC 000:830 JLINK_WriteReg(R2, 0x00000001)  returns 0x00 (0000ms, 0690ms total)
T40BC 000:830 JLINK_WriteReg(R3, 0x00000000)  returns 0x00 (0000ms, 0690ms total)
T40BC 000:830 JLINK_WriteReg(R4, 0x00000000)  returns 0x00 (0000ms, 0690ms total)
T40BC 000:830 JLINK_WriteReg(R5, 0x00000000)  returns 0x00 (0000ms, 0690ms total)
T40BC 000:830 JLINK_WriteReg(R6, 0x00000000)  returns 0x00 (0000ms, 0690ms total)
T40BC 000:830 JLINK_WriteReg(R7, 0x00000000)  returns 0x00 (0000ms, 0690ms total)
T40BC 000:830 JLINK_WriteReg(R8, 0x00000000)  returns 0x00 (0000ms, 0690ms total)
T40BC 000:830 JLINK_WriteReg(R9, 0x20000160)  returns 0x00 (0000ms, 0690ms total)
T40BC 000:830 JLINK_WriteReg(R10, 0x00000000)  returns 0x00 (0000ms, 0690ms total)
T40BC 000:830 JLINK_WriteReg(R11, 0x00000000)  returns 0x00 (0000ms, 0690ms total)
T40BC 000:830 JLINK_WriteReg(R12, 0x00000000)  returns 0x00 (0000ms, 0690ms total)
T40BC 000:830 JLINK_WriteReg(R13 (SP), 0x20001000)  returns 0x00 (0000ms, 0690ms total)
T40BC 000:830 JLINK_WriteReg(R14, 0x20000001)  returns 0x00 (0000ms, 0690ms total)
T40BC 000:830 JLINK_WriteReg(R15 (PC), 0x20000038)  returns 0x00 (0000ms, 0690ms total)
T40BC 000:830 JLINK_WriteReg(XPSR, 0x01000000)  returns 0x00 (0000ms, 0690ms total)
T40BC 000:830 JLINK_WriteReg(MSP, 0x20001000)  returns 0x00 (0000ms, 0690ms total)
T40BC 000:830 JLINK_WriteReg(PSP, 0x20001000)  returns 0x00 (0000ms, 0690ms total)
T40BC 000:830 JLINK_WriteReg(CFBP, 0x00000000)  returns 0x00 (0000ms, 0690ms total)
T40BC 000:830 JLINK_SetBPEx(Addr = 0x20000000, Type = 0xFFFFFFF2) -- CPU_ReadMem(2 bytes @ 0x20000000)  returns 0x00000001 (0001ms, 0691ms total)
T40BC 000:831 JLINK_Go() -- CPU_WriteMem(2 bytes @ 0x20000000) -- CPU_WriteMem(4 bytes @ 0xE0002008) -- CPU_WriteMem(4 bytes @ 0xE000200C) -- CPU_WriteMem(4 bytes @ 0xE0002010) -- CPU_WriteMem(4 bytes @ 0xE0002014) -- CPU_WriteMem(4 bytes @ 0xE0002018) -- CPU_WriteMem(4 bytes @ 0xE000201C) -- CPU_WriteMem(4 bytes @ 0xE0001004) (0006ms, 0697ms total)
T40BC 000:837 JLINK_IsHalted() -- CPU_ReadMem(2 bytes @ 0x20000000)  returns TRUE (0003ms, 0700ms total)
T40BC 000:840 JLINK_ReadReg(R15 (PC))  returns 0x20000000 (0000ms, 0697ms total)
T40BC 000:840 JLINK_ClrBPEx(BPHandle = 0x00000001)  returns 0x00 (0000ms, 0697ms total)
T40BC 000:840 JLINK_ReadReg(R0)  returns 0x00000000 (0000ms, 0697ms total)
T40BC 000:841 JLINK_WriteReg(R0, 0x08000000)  returns 0x00 (0000ms, 0697ms total)
T40BC 000:841 JLINK_WriteReg(R1, 0x007A1200)  returns 0x00 (0000ms, 0697ms total)
T40BC 000:841 JLINK_WriteReg(R2, 0x00000001)  returns 0x00 (0000ms, 0697ms total)
T40BC 000:841 JLINK_WriteReg(R3, 0x00000000)  returns 0x00 (0000ms, 0697ms total)
T40BC 000:841 JLINK_WriteReg(R4, 0x00000000)  returns 0x00 (0000ms, 0697ms total)
T40BC 000:841 JLINK_WriteReg(R5, 0x00000000)  returns 0x00 (0000ms, 0697ms total)
T40BC 000:841 JLINK_WriteReg(R6, 0x00000000)  returns 0x00 (0000ms, 0697ms total)
T40BC 000:841 JLINK_WriteReg(R7, 0x00000000)  returns 0x00 (0000ms, 0697ms total)
T40BC 000:841 JLINK_WriteReg(R8, 0x00000000)  returns 0x00 (0000ms, 0697ms total)
T40BC 000:841 JLINK_WriteReg(R9, 0x20000160)  returns 0x00 (0000ms, 0697ms total)
T40BC 000:841 JLINK_WriteReg(R10, 0x00000000)  returns 0x00 (0000ms, 0697ms total)
T40BC 000:841 JLINK_WriteReg(R11, 0x00000000)  returns 0x00 (0000ms, 0697ms total)
T40BC 000:841 JLINK_WriteReg(R12, 0x00000000)  returns 0x00 (0000ms, 0697ms total)
T40BC 000:841 JLINK_WriteReg(R13 (SP), 0x20001000)  returns 0x00 (0000ms, 0697ms total)
T40BC 000:841 JLINK_WriteReg(R14, 0x20000001)  returns 0x00 (0000ms, 0697ms total)
T40BC 000:841 JLINK_WriteReg(R15 (PC), 0x2000007C)  returns 0x00 (0000ms, 0697ms total)
T40BC 000:841 JLINK_WriteReg(XPSR, 0x01000000)  returns 0x00 (0000ms, 0697ms total)
T40BC 000:841 JLINK_WriteReg(MSP, 0x20001000)  returns 0x00 (0000ms, 0697ms total)
T40BC 000:841 JLINK_WriteReg(PSP, 0x20001000)  returns 0x00 (0000ms, 0697ms total)
T40BC 000:841 JLINK_WriteReg(CFBP, 0x00000000)  returns 0x00 (0000ms, 0697ms total)
T40BC 000:841 JLINK_SetBPEx(Addr = 0x20000000, Type = 0xFFFFFFF2)  returns 0x00000002 (0000ms, 0697ms total)
T40BC 000:841 JLINK_Go() (0002ms, 0699ms total)
T40BC 000:843 JLINK_IsHalted()  returns FALSE (0001ms, 0700ms total)
T40BC 000:945 JLINK_IsHalted() -- CPU_ReadMem(2 bytes @ 0x20000000)  returns TRUE (0005ms, 0704ms total)
T40BC 000:950 JLINK_ReadReg(R15 (PC))  returns 0x20000000 (0000ms, 0699ms total)
T40BC 000:950 JLINK_ClrBPEx(BPHandle = 0x00000002)  returns 0x00 (0000ms, 0699ms total)
T40BC 000:950 JLINK_ReadReg(R0)  returns 0x00000000 (0000ms, 0699ms total)
T40BC 001:003 JLINK_WriteReg(R0, 0x00000001)  returns 0x00 (0000ms, 0699ms total)
T40BC 001:003 JLINK_WriteReg(R1, 0x007A1200)  returns 0x00 (0000ms, 0699ms total)
T40BC 001:003 JLINK_WriteReg(R2, 0x00000001)  returns 0x00 (0000ms, 0699ms total)
T40BC 001:003 JLINK_WriteReg(R3, 0x00000000)  returns 0x00 (0000ms, 0699ms total)
T40BC 001:003 JLINK_WriteReg(R4, 0x00000000)  returns 0x00 (0000ms, 0699ms total)
T40BC 001:003 JLINK_WriteReg(R5, 0x00000000)  returns 0x00 (0000ms, 0699ms total)
T40BC 001:003 JLINK_WriteReg(R6, 0x00000000)  returns 0x00 (0000ms, 0699ms total)
T40BC 001:003 JLINK_WriteReg(R7, 0x00000000)  returns 0x00 (0000ms, 0699ms total)
T40BC 001:003 JLINK_WriteReg(R8, 0x00000000)  returns 0x00 (0000ms, 0699ms total)
T40BC 001:003 JLINK_WriteReg(R9, 0x20000160)  returns 0x00 (0000ms, 0699ms total)
T40BC 001:003 JLINK_WriteReg(R10, 0x00000000)  returns 0x00 (0000ms, 0699ms total)
T40BC 001:003 JLINK_WriteReg(R11, 0x00000000)  returns 0x00 (0000ms, 0699ms total)
T40BC 001:003 JLINK_WriteReg(R12, 0x00000000)  returns 0x00 (0000ms, 0699ms total)
T40BC 001:003 JLINK_WriteReg(R13 (SP), 0x20001000)  returns 0x00 (0000ms, 0699ms total)
T40BC 001:003 JLINK_WriteReg(R14, 0x20000001)  returns 0x00 (0000ms, 0699ms total)
T40BC 001:003 JLINK_WriteReg(R15 (PC), 0x2000006A)  returns 0x00 (0000ms, 0699ms total)
T40BC 001:003 JLINK_WriteReg(XPSR, 0x01000000)  returns 0x00 (0000ms, 0699ms total)
T40BC 001:003 JLINK_WriteReg(MSP, 0x20001000)  returns 0x00 (0000ms, 0699ms total)
T40BC 001:003 JLINK_WriteReg(PSP, 0x20001000)  returns 0x00 (0000ms, 0699ms total)
T40BC 001:003 JLINK_WriteReg(CFBP, 0x00000000)  returns 0x00 (0000ms, 0699ms total)
T40BC 001:003 JLINK_SetBPEx(Addr = 0x20000000, Type = 0xFFFFFFF2)  returns 0x00000003 (0000ms, 0699ms total)
T40BC 001:004 JLINK_Go() (0002ms, 0702ms total)
T40BC 001:006 JLINK_IsHalted() -- CPU_ReadMem(2 bytes @ 0x20000000)  returns TRUE (0004ms, 0706ms total)
T40BC 001:010 JLINK_ReadReg(R15 (PC))  returns 0x20000000 (0000ms, 0702ms total)
T40BC 001:010 JLINK_ClrBPEx(BPHandle = 0x00000003)  returns 0x00 (0000ms, 0702ms total)
T40BC 001:010 JLINK_ReadReg(R0)  returns 0x00000000 (0000ms, 0702ms total)
T40BC 001:018 JLINK_WriteMem(0x20000000, 0x0164 Bytes, ...) - Data: 00 BE 0A E0 0D 78 2D 06 68 40 08 24 40 00 00 D3 ... -- CPU_WriteMem(356 bytes @ 0x20000000)  returns 0x164 (0004ms, 0706ms total)
T40BC 001:022 JLINK_WriteReg(R0, 0x08000000)  returns 0x00 (0000ms, 0706ms total)
T40BC 001:022 JLINK_WriteReg(R1, 0x007A1200)  returns 0x00 (0000ms, 0706ms total)
T40BC 001:022 JLINK_WriteReg(R2, 0x00000002)  returns 0x00 (0000ms, 0706ms total)
T40BC 001:022 JLINK_WriteReg(R3, 0x00000000)  returns 0x00 (0000ms, 0706ms total)
T40BC 001:022 JLINK_WriteReg(R4, 0x00000000)  returns 0x00 (0000ms, 0706ms total)
T40BC 001:022 JLINK_WriteReg(R5, 0x00000000)  returns 0x00 (0000ms, 0706ms total)
T40BC 001:022 JLINK_WriteReg(R6, 0x00000000)  returns 0x00 (0000ms, 0706ms total)
T40BC 001:022 JLINK_WriteReg(R7, 0x00000000)  returns 0x00 (0000ms, 0706ms total)
T40BC 001:022 JLINK_WriteReg(R8, 0x00000000)  returns 0x00 (0000ms, 0706ms total)
T40BC 001:022 JLINK_WriteReg(R9, 0x20000160)  returns 0x00 (0001ms, 0707ms total)
T40BC 001:023 JLINK_WriteReg(R10, 0x00000000)  returns 0x00 (0000ms, 0707ms total)
T40BC 001:023 JLINK_WriteReg(R11, 0x00000000)  returns 0x00 (0000ms, 0707ms total)
T40BC 001:023 JLINK_WriteReg(R12, 0x00000000)  returns 0x00 (0000ms, 0707ms total)
T40BC 001:023 JLINK_WriteReg(R13 (SP), 0x20001000)  returns 0x00 (0000ms, 0707ms total)
T40BC 001:023 JLINK_WriteReg(R14, 0x20000001)  returns 0x00 (0000ms, 0707ms total)
T40BC 001:023 JLINK_WriteReg(R15 (PC), 0x20000038)  returns 0x00 (0000ms, 0707ms total)
T40BC 001:023 JLINK_WriteReg(XPSR, 0x01000000)  returns 0x00 (0000ms, 0707ms total)
T40BC 001:023 JLINK_WriteReg(MSP, 0x20001000)  returns 0x00 (0000ms, 0707ms total)
T40BC 001:023 JLINK_WriteReg(PSP, 0x20001000)  returns 0x00 (0000ms, 0707ms total)
T40BC 001:023 JLINK_WriteReg(CFBP, 0x00000000)  returns 0x00 (0000ms, 0707ms total)
T40BC 001:023 JLINK_SetBPEx(Addr = 0x20000000, Type = 0xFFFFFFF2) -- CPU_ReadMem(2 bytes @ 0x20000000)  returns 0x00000004 (0002ms, 0709ms total)
T40BC 001:025 JLINK_Go() -- CPU_WriteMem(2 bytes @ 0x20000000) (0003ms, 0712ms total)
T40BC 001:028 JLINK_IsHalted() -- CPU_ReadMem(2 bytes @ 0x20000000)  returns TRUE (0006ms, 0718ms total)
T40BC 001:034 JLINK_ReadReg(R15 (PC))  returns 0x20000000 (0000ms, 0712ms total)
T40BC 001:034 JLINK_ClrBPEx(BPHandle = 0x00000004)  returns 0x00 (0000ms, 0712ms total)
T40BC 001:034 JLINK_ReadReg(R0)  returns 0x00000000 (0000ms, 0712ms total)
T40BC 001:036 JLINK_WriteMem(0x20000164, 0x0400 Bytes, ...) - Data: 60 0D 00 20 0D 26 00 08 A5 27 00 08 A7 27 00 08 ... -- CPU_WriteMem(1024 bytes @ 0x20000164)  returns 0x400 (0006ms, 0718ms total)
T40BC 001:042 JLINK_WriteReg(R0, 0x08000000)  returns 0x00 (0000ms, 0718ms total)
T40BC 001:042 JLINK_WriteReg(R1, 0x00000400)  returns 0x00 (0000ms, 0718ms total)
T40BC 001:042 JLINK_WriteReg(R2, 0x20000164)  returns 0x00 (0000ms, 0718ms total)
T40BC 001:042 JLINK_WriteReg(R3, 0x00000000)  returns 0x00 (0000ms, 0718ms total)
T40BC 001:042 JLINK_WriteReg(R4, 0x00000000)  returns 0x00 (0000ms, 0718ms total)
T40BC 001:042 JLINK_WriteReg(R5, 0x00000000)  returns 0x00 (0000ms, 0718ms total)
T40BC 001:042 JLINK_WriteReg(R6, 0x00000000)  returns 0x00 (0000ms, 0718ms total)
T40BC 001:042 JLINK_WriteReg(R7, 0x00000000)  returns 0x00 (0000ms, 0718ms total)
T40BC 001:042 JLINK_WriteReg(R8, 0x00000000)  returns 0x00 (0000ms, 0718ms total)
T40BC 001:042 JLINK_WriteReg(R9, 0x20000160)  returns 0x00 (0000ms, 0718ms total)
T40BC 001:042 JLINK_WriteReg(R10, 0x00000000)  returns 0x00 (0000ms, 0718ms total)
T40BC 001:042 JLINK_WriteReg(R11, 0x00000000)  returns 0x00 (0000ms, 0718ms total)
T40BC 001:042 JLINK_WriteReg(R12, 0x00000000)  returns 0x00 (0000ms, 0718ms total)
T40BC 001:042 JLINK_WriteReg(R13 (SP), 0x20001000)  returns 0x00 (0000ms, 0718ms total)
T40BC 001:042 JLINK_WriteReg(R14, 0x20000001)  returns 0x00 (0000ms, 0718ms total)
T40BC 001:042 JLINK_WriteReg(R15 (PC), 0x200000F4)  returns 0x00 (0000ms, 0718ms total)
T40BC 001:042 JLINK_WriteReg(XPSR, 0x01000000)  returns 0x00 (0000ms, 0718ms total)
T40BC 001:042 JLINK_WriteReg(MSP, 0x20001000)  returns 0x00 (0000ms, 0718ms total)
T40BC 001:042 JLINK_WriteReg(PSP, 0x20001000)  returns 0x00 (0000ms, 0718ms total)
T40BC 001:042 JLINK_WriteReg(CFBP, 0x00000000)  returns 0x00 (0000ms, 0718ms total)
T40BC 001:042 JLINK_SetBPEx(Addr = 0x20000000, Type = 0xFFFFFFF2)  returns 0x00000005 (0000ms, 0718ms total)
T40BC 001:042 JLINK_Go() (0003ms, 0721ms total)
T40BC 001:045 JLINK_IsHalted()  returns FALSE (0000ms, 0721ms total)
T40BC 001:055 JLINK_IsHalted()  returns FALSE (0001ms, 0722ms total)
T40BC 001:057 JLINK_IsHalted()  returns FALSE (0001ms, 0722ms total)
T40BC 001:064 JLINK_IsHalted()  returns FALSE (0001ms, 0722ms total)
T40BC 001:068 JLINK_IsHalted()  returns FALSE (0000ms, 0721ms total)
T40BC 001:070 JLINK_IsHalted()  returns FALSE (0001ms, 0722ms total)
T40BC 001:073 JLINK_IsHalted()  returns FALSE (0001ms, 0722ms total)
T40BC 001:078 JLINK_IsHalted() -- CPU_ReadMem(2 bytes @ 0x20000000)  returns TRUE (0004ms, 0725ms total)
T40BC 001:082 JLINK_ReadReg(R15 (PC))  returns 0x20000000 (0000ms, 0721ms total)
T40BC 001:082 JLINK_ClrBPEx(BPHandle = 0x00000005)  returns 0x00 (0000ms, 0721ms total)
T40BC 001:082 JLINK_ReadReg(R0)  returns 0x00000000 (0000ms, 0721ms total)
T40BC 001:082 JLINK_WriteMem(0x20000164, 0x0400 Bytes, ...) - Data: 8F 49 C9 69 01 F0 02 01 09 B1 01 20 00 E0 00 20 ... -- CPU_WriteMem(1024 bytes @ 0x20000164)  returns 0x400 (0006ms, 0727ms total)
T40BC 001:088 JLINK_WriteReg(R0, 0x08000400)  returns 0x00 (0000ms, 0727ms total)
T40BC 001:088 JLINK_WriteReg(R1, 0x00000400)  returns 0x00 (0000ms, 0727ms total)
T40BC 001:088 JLINK_WriteReg(R2, 0x20000164)  returns 0x00 (0000ms, 0727ms total)
T40BC 001:088 JLINK_WriteReg(R3, 0x00000000)  returns 0x00 (0000ms, 0727ms total)
T40BC 001:088 JLINK_WriteReg(R4, 0x00000000)  returns 0x00 (0000ms, 0727ms total)
T40BC 001:088 JLINK_WriteReg(R5, 0x00000000)  returns 0x00 (0000ms, 0727ms total)
T40BC 001:088 JLINK_WriteReg(R6, 0x00000000)  returns 0x00 (0000ms, 0727ms total)
T40BC 001:088 JLINK_WriteReg(R7, 0x00000000)  returns 0x00 (0000ms, 0727ms total)
T40BC 001:088 JLINK_WriteReg(R8, 0x00000000)  returns 0x00 (0000ms, 0727ms total)
T40BC 001:088 JLINK_WriteReg(R9, 0x20000160)  returns 0x00 (0000ms, 0727ms total)
T40BC 001:088 JLINK_WriteReg(R10, 0x00000000)  returns 0x00 (0000ms, 0727ms total)
T40BC 001:088 JLINK_WriteReg(R11, 0x00000000)  returns 0x00 (0000ms, 0727ms total)
T40BC 001:088 JLINK_WriteReg(R12, 0x00000000)  returns 0x00 (0000ms, 0727ms total)
T40BC 001:088 JLINK_WriteReg(R13 (SP), 0x20001000)  returns 0x00 (0000ms, 0727ms total)
T40BC 001:088 JLINK_WriteReg(R14, 0x20000001)  returns 0x00 (0000ms, 0727ms total)
T40BC 001:088 JLINK_WriteReg(R15 (PC), 0x200000F4)  returns 0x00 (0000ms, 0727ms total)
T40BC 001:088 JLINK_WriteReg(XPSR, 0x01000000)  returns 0x00 (0000ms, 0727ms total)
T40BC 001:088 JLINK_WriteReg(MSP, 0x20001000)  returns 0x00 (0000ms, 0727ms total)
T40BC 001:088 JLINK_WriteReg(PSP, 0x20001000)  returns 0x00 (0000ms, 0727ms total)
T40BC 001:088 JLINK_WriteReg(CFBP, 0x00000000)  returns 0x00 (0000ms, 0727ms total)
T40BC 001:088 JLINK_SetBPEx(Addr = 0x20000000, Type = 0xFFFFFFF2)  returns 0x00000006 (0000ms, 0727ms total)
T40BC 001:088 JLINK_Go() (0002ms, 0729ms total)
T40BC 001:090 JLINK_IsHalted()  returns FALSE (0001ms, 0730ms total)
T40BC 001:096 JLINK_IsHalted()  returns FALSE (0001ms, 0730ms total)
T40BC 001:099 JLINK_IsHalted()  returns FALSE (0001ms, 0730ms total)
T40BC 001:102 JLINK_IsHalted()  returns FALSE (0000ms, 0729ms total)
T40BC 001:104 JLINK_IsHalted()  returns FALSE (0001ms, 0730ms total)
T40BC 001:107 JLINK_IsHalted()  returns FALSE (0000ms, 0729ms total)
T40BC 001:109 JLINK_IsHalted()  returns FALSE (0001ms, 0730ms total)
T40BC 001:116 JLINK_IsHalted()  returns FALSE (0001ms, 0730ms total)
T40BC 001:119 JLINK_IsHalted()  returns FALSE (0001ms, 0730ms total)
T40BC 001:128 JLINK_IsHalted() -- CPU_ReadMem(2 bytes @ 0x20000000)  returns TRUE (0005ms, 0734ms total)
T40BC 001:133 JLINK_ReadReg(R15 (PC))  returns 0x20000000 (0000ms, 0729ms total)
T40BC 001:133 JLINK_ClrBPEx(BPHandle = 0x00000006)  returns 0x00 (0000ms, 0729ms total)
T40BC 001:133 JLINK_ReadReg(R0)  returns 0x00000000 (0000ms, 0729ms total)
T40BC 001:133 JLINK_WriteMem(0x20000164, 0x0400 Bytes, ...) - Data: CC 48 84 42 08 D1 01 21 04 20 00 F0 2D FB 00 21 ... -- CPU_WriteMem(1024 bytes @ 0x20000164)  returns 0x400 (0007ms, 0736ms total)
T40BC 001:140 JLINK_WriteReg(R0, 0x08000800)  returns 0x00 (0000ms, 0736ms total)
T40BC 001:140 JLINK_WriteReg(R1, 0x00000400)  returns 0x00 (0000ms, 0736ms total)
T40BC 001:140 JLINK_WriteReg(R2, 0x20000164)  returns 0x00 (0000ms, 0736ms total)
T40BC 001:140 JLINK_WriteReg(R3, 0x00000000)  returns 0x00 (0000ms, 0736ms total)
T40BC 001:140 JLINK_WriteReg(R4, 0x00000000)  returns 0x00 (0000ms, 0736ms total)
T40BC 001:140 JLINK_WriteReg(R5, 0x00000000)  returns 0x00 (0000ms, 0736ms total)
T40BC 001:140 JLINK_WriteReg(R6, 0x00000000)  returns 0x00 (0000ms, 0736ms total)
T40BC 001:140 JLINK_WriteReg(R7, 0x00000000)  returns 0x00 (0000ms, 0736ms total)
T40BC 001:140 JLINK_WriteReg(R8, 0x00000000)  returns 0x00 (0000ms, 0736ms total)
T40BC 001:140 JLINK_WriteReg(R9, 0x20000160)  returns 0x00 (0000ms, 0736ms total)
T40BC 001:140 JLINK_WriteReg(R10, 0x00000000)  returns 0x00 (0000ms, 0736ms total)
T40BC 001:140 JLINK_WriteReg(R11, 0x00000000)  returns 0x00 (0000ms, 0736ms total)
T40BC 001:140 JLINK_WriteReg(R12, 0x00000000)  returns 0x00 (0000ms, 0736ms total)
T40BC 001:140 JLINK_WriteReg(R13 (SP), 0x20001000)  returns 0x00 (0000ms, 0736ms total)
T40BC 001:140 JLINK_WriteReg(R14, 0x20000001)  returns 0x00 (0000ms, 0736ms total)
T40BC 001:140 JLINK_WriteReg(R15 (PC), 0x200000F4)  returns 0x00 (0000ms, 0736ms total)
T40BC 001:140 JLINK_WriteReg(XPSR, 0x01000000)  returns 0x00 (0000ms, 0736ms total)
T40BC 001:140 JLINK_WriteReg(MSP, 0x20001000)  returns 0x00 (0000ms, 0736ms total)
T40BC 001:140 JLINK_WriteReg(PSP, 0x20001000)  returns 0x00 (0000ms, 0736ms total)
T40BC 001:140 JLINK_WriteReg(CFBP, 0x00000000)  returns 0x00 (0000ms, 0736ms total)
T40BC 001:140 JLINK_SetBPEx(Addr = 0x20000000, Type = 0xFFFFFFF2)  returns 0x00000007 (0000ms, 0736ms total)
T40BC 001:140 JLINK_Go() (0003ms, 0739ms total)
T40BC 001:143 JLINK_IsHalted()  returns FALSE (0000ms, 0739ms total)
T40BC 001:148 JLINK_IsHalted()  returns FALSE (0000ms, 0739ms total)
T40BC 001:150 JLINK_IsHalted()  returns FALSE (0001ms, 0740ms total)
T40BC 001:158 JLINK_IsHalted()  returns FALSE (0001ms, 0740ms total)
T40BC 001:161 JLINK_IsHalted()  returns FALSE (0001ms, 0740ms total)
T40BC 001:165 JLINK_IsHalted()  returns FALSE (0000ms, 0739ms total)
T40BC 001:168 JLINK_IsHalted()  returns FALSE (0000ms, 0739ms total)
T40BC 001:174 JLINK_IsHalted() -- CPU_ReadMem(2 bytes @ 0x20000000)  returns TRUE (0004ms, 0743ms total)
T40BC 001:178 JLINK_ReadReg(R15 (PC))  returns 0x20000000 (0000ms, 0739ms total)
T40BC 001:178 JLINK_ClrBPEx(BPHandle = 0x00000007)  returns 0x00 (0000ms, 0739ms total)
T40BC 001:178 JLINK_ReadReg(R0)  returns 0x00000000 (0000ms, 0739ms total)
T40BC 001:179 JLINK_WriteMem(0x20000164, 0x0400 Bytes, ...) - Data: 63 6A 01 F0 1F 02 01 24 94 40 1C 40 0C B1 01 20 ... -- CPU_WriteMem(1024 bytes @ 0x20000164)  returns 0x400 (0007ms, 0746ms total)
T40BC 001:186 JLINK_WriteReg(R0, 0x08000C00)  returns 0x00 (0000ms, 0746ms total)
T40BC 001:186 JLINK_WriteReg(R1, 0x00000400)  returns 0x00 (0000ms, 0746ms total)
T40BC 001:186 JLINK_WriteReg(R2, 0x20000164)  returns 0x00 (0000ms, 0746ms total)
T40BC 001:186 JLINK_WriteReg(R3, 0x00000000)  returns 0x00 (0000ms, 0746ms total)
T40BC 001:186 JLINK_WriteReg(R4, 0x00000000)  returns 0x00 (0000ms, 0746ms total)
T40BC 001:186 JLINK_WriteReg(R5, 0x00000000)  returns 0x00 (0000ms, 0746ms total)
T40BC 001:186 JLINK_WriteReg(R6, 0x00000000)  returns 0x00 (0000ms, 0746ms total)
T40BC 001:186 JLINK_WriteReg(R7, 0x00000000)  returns 0x00 (0000ms, 0746ms total)
T40BC 001:186 JLINK_WriteReg(R8, 0x00000000)  returns 0x00 (0000ms, 0746ms total)
T40BC 001:186 JLINK_WriteReg(R9, 0x20000160)  returns 0x00 (0000ms, 0746ms total)
T40BC 001:186 JLINK_WriteReg(R10, 0x00000000)  returns 0x00 (0000ms, 0746ms total)
T40BC 001:186 JLINK_WriteReg(R11, 0x00000000)  returns 0x00 (0000ms, 0746ms total)
T40BC 001:186 JLINK_WriteReg(R12, 0x00000000)  returns 0x00 (0000ms, 0746ms total)
T40BC 001:186 JLINK_WriteReg(R13 (SP), 0x20001000)  returns 0x00 (0000ms, 0746ms total)
T40BC 001:186 JLINK_WriteReg(R14, 0x20000001)  returns 0x00 (0000ms, 0746ms total)
T40BC 001:186 JLINK_WriteReg(R15 (PC), 0x200000F4)  returns 0x00 (0000ms, 0746ms total)
T40BC 001:186 JLINK_WriteReg(XPSR, 0x01000000)  returns 0x00 (0000ms, 0746ms total)
T40BC 001:186 JLINK_WriteReg(MSP, 0x20001000)  returns 0x00 (0000ms, 0746ms total)
T40BC 001:186 JLINK_WriteReg(PSP, 0x20001000)  returns 0x00 (0000ms, 0746ms total)
T40BC 001:186 JLINK_WriteReg(CFBP, 0x00000000)  returns 0x00 (0000ms, 0746ms total)
T40BC 001:186 JLINK_SetBPEx(Addr = 0x20000000, Type = 0xFFFFFFF2)  returns 0x00000008 (0000ms, 0746ms total)
T40BC 001:186 JLINK_Go() (0002ms, 0748ms total)
T40BC 001:188 JLINK_IsHalted()  returns FALSE (0001ms, 0749ms total)
T40BC 001:193 JLINK_IsHalted()  returns FALSE (0001ms, 0749ms total)
T40BC 001:196 JLINK_IsHalted()  returns FALSE (0001ms, 0749ms total)
T40BC 001:201 JLINK_IsHalted()  returns FALSE (0001ms, 0749ms total)
T40BC 001:203 JLINK_IsHalted()  returns FALSE (0002ms, 0750ms total)
T40BC 001:211 JLINK_IsHalted()  returns FALSE (0000ms, 0748ms total)
T40BC 001:215 JLINK_IsHalted()  returns FALSE (0001ms, 0749ms total)
T40BC 001:221 JLINK_IsHalted() -- CPU_ReadMem(2 bytes @ 0x20000000)  returns TRUE (0005ms, 0753ms total)
T40BC 001:226 JLINK_ReadReg(R15 (PC))  returns 0x20000000 (0000ms, 0748ms total)
T40BC 001:226 JLINK_ClrBPEx(BPHandle = 0x00000008)  returns 0x00 (0000ms, 0748ms total)
T40BC 001:226 JLINK_ReadReg(R0)  returns 0x00000000 (0000ms, 0748ms total)
T40BC 001:226 JLINK_WriteMem(0x20000164, 0x0400 Bytes, ...) - Data: BA FB F0 F0 00 EB 80 00 40 00 A1 68 B0 FB F1 F0 ... -- CPU_WriteMem(1024 bytes @ 0x20000164)  returns 0x400 (0007ms, 0755ms total)
T40BC 001:233 JLINK_WriteReg(R0, 0x08001000)  returns 0x00 (0000ms, 0755ms total)
T40BC 001:233 JLINK_WriteReg(R1, 0x00000400)  returns 0x00 (0000ms, 0755ms total)
T40BC 001:233 JLINK_WriteReg(R2, 0x20000164)  returns 0x00 (0000ms, 0755ms total)
T40BC 001:233 JLINK_WriteReg(R3, 0x00000000)  returns 0x00 (0000ms, 0755ms total)
T40BC 001:233 JLINK_WriteReg(R4, 0x00000000)  returns 0x00 (0000ms, 0755ms total)
T40BC 001:233 JLINK_WriteReg(R5, 0x00000000)  returns 0x00 (0000ms, 0755ms total)
T40BC 001:233 JLINK_WriteReg(R6, 0x00000000)  returns 0x00 (0000ms, 0755ms total)
T40BC 001:233 JLINK_WriteReg(R7, 0x00000000)  returns 0x00 (0000ms, 0755ms total)
T40BC 001:233 JLINK_WriteReg(R8, 0x00000000)  returns 0x00 (0000ms, 0755ms total)
T40BC 001:233 JLINK_WriteReg(R9, 0x20000160)  returns 0x00 (0000ms, 0755ms total)
T40BC 001:233 JLINK_WriteReg(R10, 0x00000000)  returns 0x00 (0000ms, 0755ms total)
T40BC 001:233 JLINK_WriteReg(R11, 0x00000000)  returns 0x00 (0000ms, 0755ms total)
T40BC 001:233 JLINK_WriteReg(R12, 0x00000000)  returns 0x00 (0000ms, 0755ms total)
T40BC 001:233 JLINK_WriteReg(R13 (SP), 0x20001000)  returns 0x00 (0000ms, 0755ms total)
T40BC 001:233 JLINK_WriteReg(R14, 0x20000001)  returns 0x00 (0000ms, 0755ms total)
T40BC 001:233 JLINK_WriteReg(R15 (PC), 0x200000F4)  returns 0x00 (0000ms, 0755ms total)
T40BC 001:233 JLINK_WriteReg(XPSR, 0x01000000)  returns 0x00 (0000ms, 0755ms total)
T40BC 001:233 JLINK_WriteReg(MSP, 0x20001000)  returns 0x00 (0000ms, 0755ms total)
T40BC 001:233 JLINK_WriteReg(PSP, 0x20001000)  returns 0x00 (0000ms, 0755ms total)
T40BC 001:233 JLINK_WriteReg(CFBP, 0x00000000)  returns 0x00 (0000ms, 0755ms total)
T40BC 001:233 JLINK_SetBPEx(Addr = 0x20000000, Type = 0xFFFFFFF2)  returns 0x00000009 (0000ms, 0755ms total)
T40BC 001:233 JLINK_Go() (0002ms, 0757ms total)
T40BC 001:235 JLINK_IsHalted()  returns FALSE (0001ms, 0758ms total)
T40BC 001:241 JLINK_IsHalted()  returns FALSE (0001ms, 0758ms total)
T40BC 001:245 JLINK_IsHalted()  returns FALSE (0001ms, 0758ms total)
T40BC 001:248 JLINK_IsHalted()  returns FALSE (0001ms, 0758ms total)
T40BC 001:254 JLINK_IsHalted()  returns FALSE (0001ms, 0758ms total)
T40BC 001:256 JLINK_IsHalted()  returns FALSE (0001ms, 0758ms total)
T40BC 001:260 JLINK_IsHalted()  returns FALSE (0001ms, 0758ms total)
T40BC 001:263 JLINK_IsHalted()  returns FALSE (0002ms, 0759ms total)
T40BC 001:267 JLINK_IsHalted() -- CPU_ReadMem(2 bytes @ 0x20000000)  returns TRUE (0005ms, 0762ms total)
T40BC 001:272 JLINK_ReadReg(R15 (PC))  returns 0x20000000 (0000ms, 0757ms total)
T40BC 001:272 JLINK_ClrBPEx(BPHandle = 0x00000009)  returns 0x00 (0000ms, 0757ms total)
T40BC 001:272 JLINK_ReadReg(R0)  returns 0x00000000 (0000ms, 0757ms total)
T40BC 001:274 JLINK_WriteMem(0x20000164, 0x0400 Bytes, ...) - Data: 03 85 81 4B 98 42 0B D0 85 4B 98 42 08 D0 8B 4B ... -- CPU_WriteMem(1024 bytes @ 0x20000164)  returns 0x400 (0005ms, 0762ms total)
T40BC 001:279 JLINK_WriteReg(R0, 0x08001400)  returns 0x00 (0000ms, 0762ms total)
T40BC 001:279 JLINK_WriteReg(R1, 0x00000400)  returns 0x00 (0000ms, 0762ms total)
T40BC 001:279 JLINK_WriteReg(R2, 0x20000164)  returns 0x00 (0000ms, 0762ms total)
T40BC 001:279 JLINK_WriteReg(R3, 0x00000000)  returns 0x00 (0000ms, 0762ms total)
T40BC 001:279 JLINK_WriteReg(R4, 0x00000000)  returns 0x00 (0000ms, 0762ms total)
T40BC 001:279 JLINK_WriteReg(R5, 0x00000000)  returns 0x00 (0000ms, 0762ms total)
T40BC 001:279 JLINK_WriteReg(R6, 0x00000000)  returns 0x00 (0000ms, 0762ms total)
T40BC 001:279 JLINK_WriteReg(R7, 0x00000000)  returns 0x00 (0000ms, 0762ms total)
T40BC 001:279 JLINK_WriteReg(R8, 0x00000000)  returns 0x00 (0000ms, 0762ms total)
T40BC 001:279 JLINK_WriteReg(R9, 0x20000160)  returns 0x00 (0000ms, 0762ms total)
T40BC 001:279 JLINK_WriteReg(R10, 0x00000000)  returns 0x00 (0000ms, 0762ms total)
T40BC 001:279 JLINK_WriteReg(R11, 0x00000000)  returns 0x00 (0000ms, 0762ms total)
T40BC 001:279 JLINK_WriteReg(R12, 0x00000000)  returns 0x00 (0000ms, 0762ms total)
T40BC 001:279 JLINK_WriteReg(R13 (SP), 0x20001000)  returns 0x00 (0000ms, 0762ms total)
T40BC 001:279 JLINK_WriteReg(R14, 0x20000001)  returns 0x00 (0000ms, 0762ms total)
T40BC 001:279 JLINK_WriteReg(R15 (PC), 0x200000F4)  returns 0x00 (0000ms, 0762ms total)
T40BC 001:279 JLINK_WriteReg(XPSR, 0x01000000)  returns 0x00 (0000ms, 0762ms total)
T40BC 001:279 JLINK_WriteReg(MSP, 0x20001000)  returns 0x00 (0000ms, 0762ms total)
T40BC 001:279 JLINK_WriteReg(PSP, 0x20001000)  returns 0x00 (0000ms, 0762ms total)
T40BC 001:279 JLINK_WriteReg(CFBP, 0x00000000)  returns 0x00 (0000ms, 0762ms total)
T40BC 001:279 JLINK_SetBPEx(Addr = 0x20000000, Type = 0xFFFFFFF2)  returns 0x0000000A (0000ms, 0762ms total)
T40BC 001:279 JLINK_Go() (0003ms, 0765ms total)
T40BC 001:282 JLINK_IsHalted()  returns FALSE (0001ms, 0766ms total)
T40BC 001:287 JLINK_IsHalted()  returns FALSE (0000ms, 0765ms total)
T40BC 001:291 JLINK_IsHalted()  returns FALSE (0000ms, 0765ms total)
T40BC 001:294 JLINK_IsHalted()  returns FALSE (0000ms, 0765ms total)
T40BC 001:302 JLINK_IsHalted()  returns FALSE (0000ms, 0765ms total)
T40BC 001:303 JLINK_IsHalted()  returns FALSE (0001ms, 0766ms total)
T40BC 001:308 JLINK_IsHalted()  returns FALSE (0000ms, 0765ms total)
T40BC 001:312 JLINK_IsHalted() -- CPU_ReadMem(2 bytes @ 0x20000000)  returns TRUE (0004ms, 0769ms total)
T40BC 001:316 JLINK_ReadReg(R15 (PC))  returns 0x20000000 (0000ms, 0765ms total)
T40BC 001:316 JLINK_ClrBPEx(BPHandle = 0x0000000A)  returns 0x00 (0000ms, 0765ms total)
T40BC 001:316 JLINK_ReadReg(R0)  returns 0x00000000 (0000ms, 0765ms total)
T40BC 001:316 JLINK_WriteMem(0x20000164, 0x0400 Bytes, ...) - Data: 4F F6 FF 77 07 EA 03 37 3A 43 4F F6 FF 77 07 EA ... -- CPU_WriteMem(1024 bytes @ 0x20000164)  returns 0x400 (0007ms, 0772ms total)
T40BC 001:323 JLINK_WriteReg(R0, 0x08001800)  returns 0x00 (0000ms, 0772ms total)
T40BC 001:323 JLINK_WriteReg(R1, 0x00000400)  returns 0x00 (0000ms, 0772ms total)
T40BC 001:323 JLINK_WriteReg(R2, 0x20000164)  returns 0x00 (0000ms, 0772ms total)
T40BC 001:323 JLINK_WriteReg(R3, 0x00000000)  returns 0x00 (0000ms, 0772ms total)
T40BC 001:323 JLINK_WriteReg(R4, 0x00000000)  returns 0x00 (0000ms, 0772ms total)
T40BC 001:323 JLINK_WriteReg(R5, 0x00000000)  returns 0x00 (0000ms, 0772ms total)
T40BC 001:323 JLINK_WriteReg(R6, 0x00000000)  returns 0x00 (0000ms, 0772ms total)
T40BC 001:323 JLINK_WriteReg(R7, 0x00000000)  returns 0x00 (0000ms, 0772ms total)
T40BC 001:323 JLINK_WriteReg(R8, 0x00000000)  returns 0x00 (0000ms, 0772ms total)
T40BC 001:323 JLINK_WriteReg(R9, 0x20000160)  returns 0x00 (0000ms, 0772ms total)
T40BC 001:323 JLINK_WriteReg(R10, 0x00000000)  returns 0x00 (0000ms, 0772ms total)
T40BC 001:323 JLINK_WriteReg(R11, 0x00000000)  returns 0x00 (0000ms, 0772ms total)
T40BC 001:323 JLINK_WriteReg(R12, 0x00000000)  returns 0x00 (0000ms, 0772ms total)
T40BC 001:323 JLINK_WriteReg(R13 (SP), 0x20001000)  returns 0x00 (0000ms, 0772ms total)
T40BC 001:323 JLINK_WriteReg(R14, 0x20000001)  returns 0x00 (0000ms, 0772ms total)
T40BC 001:323 JLINK_WriteReg(R15 (PC), 0x200000F4)  returns 0x00 (0000ms, 0772ms total)
T40BC 001:323 JLINK_WriteReg(XPSR, 0x01000000)  returns 0x00 (0000ms, 0772ms total)
T40BC 001:323 JLINK_WriteReg(MSP, 0x20001000)  returns 0x00 (0000ms, 0772ms total)
T40BC 001:323 JLINK_WriteReg(PSP, 0x20001000)  returns 0x00 (0000ms, 0772ms total)
T40BC 001:323 JLINK_WriteReg(CFBP, 0x00000000)  returns 0x00 (0000ms, 0772ms total)
T40BC 001:323 JLINK_SetBPEx(Addr = 0x20000000, Type = 0xFFFFFFF2)  returns 0x0000000B (0000ms, 0772ms total)
T40BC 001:323 JLINK_Go() (0003ms, 0775ms total)
T40BC 001:326 JLINK_IsHalted()  returns FALSE (0001ms, 0776ms total)
T40BC 001:330 JLINK_IsHalted()  returns FALSE (0001ms, 0776ms total)
T40BC 001:334 JLINK_IsHalted()  returns FALSE (0000ms, 0775ms total)
T40BC 001:337 JLINK_IsHalted()  returns FALSE (0001ms, 0776ms total)
T40BC 001:340 JLINK_IsHalted()  returns FALSE (0001ms, 0776ms total)
T40BC 001:348 JLINK_IsHalted()  returns FALSE (0000ms, 0775ms total)
T40BC 001:351 JLINK_IsHalted()  returns FALSE (0001ms, 0776ms total)
T40BC 001:355 JLINK_IsHalted()  returns FALSE (0001ms, 0776ms total)
T40BC 001:358 JLINK_IsHalted() -- CPU_ReadMem(2 bytes @ 0x20000000)  returns TRUE (0004ms, 0779ms total)
T40BC 001:362 JLINK_ReadReg(R15 (PC))  returns 0x20000000 (0000ms, 0775ms total)
T40BC 001:362 JLINK_ClrBPEx(BPHandle = 0x0000000B)  returns 0x00 (0000ms, 0775ms total)
T40BC 001:362 JLINK_ReadReg(R0)  returns 0x00000000 (0000ms, 0775ms total)
T40BC 001:362 JLINK_WriteMem(0x20000164, 0x0400 Bytes, ...) - Data: 07 EA 06 17 2F 43 3B 43 01 81 02 83 03 84 F0 BD ... -- CPU_WriteMem(1024 bytes @ 0x20000164)  returns 0x400 (0006ms, 0781ms total)
T40BC 001:368 JLINK_WriteReg(R0, 0x08001C00)  returns 0x00 (0000ms, 0781ms total)
T40BC 001:368 JLINK_WriteReg(R1, 0x00000400)  returns 0x00 (0000ms, 0781ms total)
T40BC 001:368 JLINK_WriteReg(R2, 0x20000164)  returns 0x00 (0000ms, 0781ms total)
T40BC 001:368 JLINK_WriteReg(R3, 0x00000000)  returns 0x00 (0000ms, 0781ms total)
T40BC 001:368 JLINK_WriteReg(R4, 0x00000000)  returns 0x00 (0000ms, 0781ms total)
T40BC 001:368 JLINK_WriteReg(R5, 0x00000000)  returns 0x00 (0000ms, 0781ms total)
T40BC 001:368 JLINK_WriteReg(R6, 0x00000000)  returns 0x00 (0000ms, 0781ms total)
T40BC 001:368 JLINK_WriteReg(R7, 0x00000000)  returns 0x00 (0000ms, 0781ms total)
T40BC 001:368 JLINK_WriteReg(R8, 0x00000000)  returns 0x00 (0000ms, 0781ms total)
T40BC 001:368 JLINK_WriteReg(R9, 0x20000160)  returns 0x00 (0000ms, 0781ms total)
T40BC 001:368 JLINK_WriteReg(R10, 0x00000000)  returns 0x00 (0000ms, 0781ms total)
T40BC 001:368 JLINK_WriteReg(R11, 0x00000000)  returns 0x00 (0000ms, 0781ms total)
T40BC 001:368 JLINK_WriteReg(R12, 0x00000000)  returns 0x00 (0000ms, 0781ms total)
T40BC 001:368 JLINK_WriteReg(R13 (SP), 0x20001000)  returns 0x00 (0000ms, 0781ms total)
T40BC 001:368 JLINK_WriteReg(R14, 0x20000001)  returns 0x00 (0000ms, 0781ms total)
T40BC 001:368 JLINK_WriteReg(R15 (PC), 0x200000F4)  returns 0x00 (0000ms, 0781ms total)
T40BC 001:368 JLINK_WriteReg(XPSR, 0x01000000)  returns 0x00 (0000ms, 0781ms total)
T40BC 001:368 JLINK_WriteReg(MSP, 0x20001000)  returns 0x00 (0000ms, 0781ms total)
T40BC 001:368 JLINK_WriteReg(PSP, 0x20001000)  returns 0x00 (0000ms, 0781ms total)
T40BC 001:368 JLINK_WriteReg(CFBP, 0x00000000)  returns 0x00 (0000ms, 0781ms total)
T40BC 001:368 JLINK_SetBPEx(Addr = 0x20000000, Type = 0xFFFFFFF2)  returns 0x0000000C (0000ms, 0781ms total)
T40BC 001:368 JLINK_Go() (0002ms, 0783ms total)
T40BC 001:370 JLINK_IsHalted()  returns FALSE (0001ms, 0784ms total)
T40BC 001:378 JLINK_IsHalted()  returns FALSE (0001ms, 0784ms total)
T40BC 001:380 JLINK_IsHalted()  returns FALSE (0001ms, 0784ms total)
T40BC 001:384 JLINK_IsHalted()  returns FALSE (0001ms, 0784ms total)
T40BC 001:387 JLINK_IsHalted()  returns FALSE (0001ms, 0784ms total)
T40BC 001:390 JLINK_IsHalted()  returns FALSE (0002ms, 0785ms total)
T40BC 001:398 JLINK_IsHalted()  returns FALSE (0001ms, 0784ms total)
T40BC 001:403 JLINK_IsHalted() -- CPU_ReadMem(2 bytes @ 0x20000000)  returns TRUE (0005ms, 0788ms total)
T40BC 001:408 JLINK_ReadReg(R15 (PC))  returns 0x20000000 (0000ms, 0783ms total)
T40BC 001:408 JLINK_ClrBPEx(BPHandle = 0x0000000C)  returns 0x00 (0000ms, 0783ms total)
T40BC 001:408 JLINK_ReadReg(R0)  returns 0x00000000 (0000ms, 0783ms total)
T40BC 001:409 JLINK_WriteMem(0x20000164, 0x0400 Bytes, ...) - Data: 00 23 00 24 15 8A 05 EA 01 03 95 89 05 EA 01 04 ... -- CPU_WriteMem(1024 bytes @ 0x20000164)  returns 0x400 (0006ms, 0789ms total)
T40BC 001:415 JLINK_WriteReg(R0, 0x08002000)  returns 0x00 (0000ms, 0789ms total)
T40BC 001:415 JLINK_WriteReg(R1, 0x00000400)  returns 0x00 (0000ms, 0789ms total)
T40BC 001:415 JLINK_WriteReg(R2, 0x20000164)  returns 0x00 (0000ms, 0789ms total)
T40BC 001:415 JLINK_WriteReg(R3, 0x00000000)  returns 0x00 (0000ms, 0789ms total)
T40BC 001:415 JLINK_WriteReg(R4, 0x00000000)  returns 0x00 (0000ms, 0789ms total)
T40BC 001:415 JLINK_WriteReg(R5, 0x00000000)  returns 0x00 (0000ms, 0789ms total)
T40BC 001:415 JLINK_WriteReg(R6, 0x00000000)  returns 0x00 (0000ms, 0789ms total)
T40BC 001:415 JLINK_WriteReg(R7, 0x00000000)  returns 0x00 (0000ms, 0789ms total)
T40BC 001:415 JLINK_WriteReg(R8, 0x00000000)  returns 0x00 (0000ms, 0789ms total)
T40BC 001:415 JLINK_WriteReg(R9, 0x20000160)  returns 0x00 (0000ms, 0789ms total)
T40BC 001:415 JLINK_WriteReg(R10, 0x00000000)  returns 0x00 (0000ms, 0789ms total)
T40BC 001:415 JLINK_WriteReg(R11, 0x00000000)  returns 0x00 (0000ms, 0789ms total)
T40BC 001:415 JLINK_WriteReg(R12, 0x00000000)  returns 0x00 (0000ms, 0789ms total)
T40BC 001:415 JLINK_WriteReg(R13 (SP), 0x20001000)  returns 0x00 (0000ms, 0789ms total)
T40BC 001:415 JLINK_WriteReg(R14, 0x20000001)  returns 0x00 (0000ms, 0789ms total)
T40BC 001:415 JLINK_WriteReg(R15 (PC), 0x200000F4)  returns 0x00 (0000ms, 0789ms total)
T40BC 001:415 JLINK_WriteReg(XPSR, 0x01000000)  returns 0x00 (0000ms, 0789ms total)
T40BC 001:415 JLINK_WriteReg(MSP, 0x20001000)  returns 0x00 (0000ms, 0789ms total)
T40BC 001:415 JLINK_WriteReg(PSP, 0x20001000)  returns 0x00 (0000ms, 0789ms total)
T40BC 001:415 JLINK_WriteReg(CFBP, 0x00000000)  returns 0x00 (0000ms, 0789ms total)
T40BC 001:415 JLINK_SetBPEx(Addr = 0x20000000, Type = 0xFFFFFFF2)  returns 0x0000000D (0000ms, 0789ms total)
T40BC 001:415 JLINK_Go() (0003ms, 0792ms total)
T40BC 001:418 JLINK_IsHalted()  returns FALSE (0001ms, 0793ms total)
T40BC 001:425 JLINK_IsHalted()  returns FALSE (0000ms, 0792ms total)
T40BC 001:427 JLINK_IsHalted()  returns FALSE (0001ms, 0793ms total)
T40BC 001:430 JLINK_IsHalted()  returns FALSE (0001ms, 0793ms total)
T40BC 001:433 JLINK_IsHalted()  returns FALSE (0001ms, 0793ms total)
T40BC 001:436 JLINK_IsHalted()  returns FALSE (0001ms, 0793ms total)
T40BC 001:441 JLINK_IsHalted()  returns FALSE (0001ms, 0793ms total)
T40BC 001:443 JLINK_IsHalted()  returns FALSE (0001ms, 0793ms total)
T40BC 001:447 JLINK_IsHalted()  returns FALSE (0001ms, 0793ms total)
T40BC 001:450 JLINK_IsHalted() -- CPU_ReadMem(2 bytes @ 0x20000000)  returns TRUE (0004ms, 0796ms total)
T40BC 001:454 JLINK_ReadReg(R15 (PC))  returns 0x20000000 (0000ms, 0792ms total)
T40BC 001:454 JLINK_ClrBPEx(BPHandle = 0x0000000D)  returns 0x00 (0000ms, 0792ms total)
T40BC 001:454 JLINK_ReadReg(R0)  returns 0x00000000 (0000ms, 0792ms total)
T40BC 001:454 JLINK_WriteMem(0x20000164, 0x0400 Bytes, ...) - Data: 6A 14 A1 42 00 D1 00 BF 0A 12 01 24 94 40 A3 B2 ... -- CPU_WriteMem(1024 bytes @ 0x20000164)  returns 0x400 (0006ms, 0798ms total)
T40BC 001:460 JLINK_WriteReg(R0, 0x08002400)  returns 0x00 (0000ms, 0798ms total)
T40BC 001:460 JLINK_WriteReg(R1, 0x00000400)  returns 0x00 (0000ms, 0798ms total)
T40BC 001:460 JLINK_WriteReg(R2, 0x20000164)  returns 0x00 (0000ms, 0798ms total)
T40BC 001:460 JLINK_WriteReg(R3, 0x00000000)  returns 0x00 (0000ms, 0798ms total)
T40BC 001:460 JLINK_WriteReg(R4, 0x00000000)  returns 0x00 (0000ms, 0798ms total)
T40BC 001:460 JLINK_WriteReg(R5, 0x00000000)  returns 0x00 (0000ms, 0798ms total)
T40BC 001:460 JLINK_WriteReg(R6, 0x00000000)  returns 0x00 (0000ms, 0798ms total)
T40BC 001:460 JLINK_WriteReg(R7, 0x00000000)  returns 0x00 (0000ms, 0798ms total)
T40BC 001:460 JLINK_WriteReg(R8, 0x00000000)  returns 0x00 (0000ms, 0798ms total)
T40BC 001:460 JLINK_WriteReg(R9, 0x20000160)  returns 0x00 (0000ms, 0798ms total)
T40BC 001:460 JLINK_WriteReg(R10, 0x00000000)  returns 0x00 (0000ms, 0798ms total)
T40BC 001:460 JLINK_WriteReg(R11, 0x00000000)  returns 0x00 (0000ms, 0798ms total)
T40BC 001:460 JLINK_WriteReg(R12, 0x00000000)  returns 0x00 (0000ms, 0798ms total)
T40BC 001:460 JLINK_WriteReg(R13 (SP), 0x20001000)  returns 0x00 (0000ms, 0798ms total)
T40BC 001:460 JLINK_WriteReg(R14, 0x20000001)  returns 0x00 (0000ms, 0798ms total)
T40BC 001:460 JLINK_WriteReg(R15 (PC), 0x200000F4)  returns 0x00 (0000ms, 0798ms total)
T40BC 001:460 JLINK_WriteReg(XPSR, 0x01000000)  returns 0x00 (0000ms, 0798ms total)
T40BC 001:460 JLINK_WriteReg(MSP, 0x20001000)  returns 0x00 (0000ms, 0798ms total)
T40BC 001:460 JLINK_WriteReg(PSP, 0x20001000)  returns 0x00 (0000ms, 0798ms total)
T40BC 001:460 JLINK_WriteReg(CFBP, 0x00000000)  returns 0x00 (0000ms, 0798ms total)
T40BC 001:460 JLINK_SetBPEx(Addr = 0x20000000, Type = 0xFFFFFFF2)  returns 0x0000000E (0000ms, 0798ms total)
T40BC 001:460 JLINK_Go() (0004ms, 0802ms total)
T40BC 001:464 JLINK_IsHalted()  returns FALSE (0001ms, 0803ms total)
T40BC 001:475 JLINK_IsHalted()  returns FALSE (0001ms, 0803ms total)
T40BC 001:479 JLINK_IsHalted()  returns FALSE (0001ms, 0803ms total)
T40BC 001:482 JLINK_IsHalted()  returns FALSE (0001ms, 0803ms total)
T40BC 001:489 JLINK_IsHalted()  returns FALSE (0001ms, 0803ms total)
T40BC 001:492 JLINK_IsHalted()  returns FALSE (0001ms, 0803ms total)
T40BC 001:495 JLINK_IsHalted() -- CPU_ReadMem(2 bytes @ 0x20000000)  returns TRUE (0004ms, 0806ms total)
T40BC 001:499 JLINK_ReadReg(R15 (PC))  returns 0x20000000 (0000ms, 0802ms total)
T40BC 001:499 JLINK_ClrBPEx(BPHandle = 0x0000000E)  returns 0x00 (0000ms, 0802ms total)
T40BC 001:499 JLINK_ReadReg(R0)  returns 0x00000000 (0000ms, 0802ms total)
T40BC 001:500 JLINK_WriteMem(0x20000164, 0x0400 Bytes, ...) - Data: 8B F9 00 F0 D0 F9 00 B1 25 E0 F8 B2 00 F0 84 F9 ... -- CPU_WriteMem(1024 bytes @ 0x20000164)  returns 0x400 (0006ms, 0808ms total)
T40BC 001:506 JLINK_WriteReg(R0, 0x08002800)  returns 0x00 (0000ms, 0808ms total)
T40BC 001:506 JLINK_WriteReg(R1, 0x00000400)  returns 0x00 (0000ms, 0808ms total)
T40BC 001:506 JLINK_WriteReg(R2, 0x20000164)  returns 0x00 (0000ms, 0808ms total)
T40BC 001:506 JLINK_WriteReg(R3, 0x00000000)  returns 0x00 (0000ms, 0808ms total)
T40BC 001:506 JLINK_WriteReg(R4, 0x00000000)  returns 0x00 (0000ms, 0808ms total)
T40BC 001:506 JLINK_WriteReg(R5, 0x00000000)  returns 0x00 (0000ms, 0808ms total)
T40BC 001:506 JLINK_WriteReg(R6, 0x00000000)  returns 0x00 (0000ms, 0808ms total)
T40BC 001:506 JLINK_WriteReg(R7, 0x00000000)  returns 0x00 (0000ms, 0808ms total)
T40BC 001:506 JLINK_WriteReg(R8, 0x00000000)  returns 0x00 (0000ms, 0808ms total)
T40BC 001:506 JLINK_WriteReg(R9, 0x20000160)  returns 0x00 (0000ms, 0808ms total)
T40BC 001:506 JLINK_WriteReg(R10, 0x00000000)  returns 0x00 (0000ms, 0808ms total)
T40BC 001:506 JLINK_WriteReg(R11, 0x00000000)  returns 0x00 (0000ms, 0808ms total)
T40BC 001:506 JLINK_WriteReg(R12, 0x00000000)  returns 0x00 (0000ms, 0808ms total)
T40BC 001:506 JLINK_WriteReg(R13 (SP), 0x20001000)  returns 0x00 (0000ms, 0808ms total)
T40BC 001:506 JLINK_WriteReg(R14, 0x20000001)  returns 0x00 (0000ms, 0808ms total)
T40BC 001:506 JLINK_WriteReg(R15 (PC), 0x200000F4)  returns 0x00 (0000ms, 0808ms total)
T40BC 001:506 JLINK_WriteReg(XPSR, 0x01000000)  returns 0x00 (0000ms, 0808ms total)
T40BC 001:506 JLINK_WriteReg(MSP, 0x20001000)  returns 0x00 (0000ms, 0808ms total)
T40BC 001:506 JLINK_WriteReg(PSP, 0x20001000)  returns 0x00 (0000ms, 0808ms total)
T40BC 001:506 JLINK_WriteReg(CFBP, 0x00000000)  returns 0x00 (0000ms, 0808ms total)
T40BC 001:506 JLINK_SetBPEx(Addr = 0x20000000, Type = 0xFFFFFFF2)  returns 0x0000000F (0000ms, 0808ms total)
T40BC 001:506 JLINK_Go() (0003ms, 0811ms total)
T40BC 001:509 JLINK_IsHalted()  returns FALSE (0002ms, 0813ms total)
T40BC 001:515 JLINK_IsHalted()  returns FALSE (0000ms, 0811ms total)
T40BC 001:517 JLINK_IsHalted()  returns FALSE (0001ms, 0812ms total)
T40BC 001:522 JLINK_IsHalted()  returns FALSE (0001ms, 0812ms total)
T40BC 001:525 JLINK_IsHalted()  returns FALSE (0001ms, 0812ms total)
T40BC 001:528 JLINK_IsHalted()  returns FALSE (0001ms, 0812ms total)
